
T0428 000:327 SEGGER J-Link V4.96d Log File (0000ms, 0272ms total)
T0428 000:327 DLL Compiled: Jan 29 2015 11:45:37 (0000ms, 0272ms total)
T0428 000:327 Logging started @ 2017-01-10 10:28 (0000ms, 0272ms total)
T0428 000:328 JLINK_SetWarnOutHandler(...) (0000ms, 0272ms total)
T0428 000:328 JLINK_OpenEx(...)
Firmware: J-Link ARM V8 compiled Jan 31 2018 18:34:52
Hardware: V8.00
S/N: 20080643
Feature(s): RDI,FlashDL,FlashBP,JFlash,GDBFull  returns O.K. (0270ms, 0542ms total)
T0428 000:598 JLINK_SetErrorOutHandler(...) (0000ms, 0542ms total)
T0428 000:598 JLINK_ExecCommand("ProjectFile = "F:\FIT MANAGER V3.4 Software\FreeRTOS F407\Project\ARM_MDK\JLinkSettings.ini"", ...)  returns 0x00 (0001ms, 0543ms total)
T0428 000:599 JLINK_ExecCommand("Device = STM32F407ZG", ...)Device "STM32F407ZG" selected.  returns 0x00 (0002ms, 0545ms total)
T0428 000:601 JLINK_ExecCommand("DisableConnectionTimeout", ...)  returns 0x01 (0001ms, 0546ms total)
T0428 000:602 JLINK_GetHardwareVersion()  returns 0x13880 (0000ms, 0546ms total)
T0428 000:602 JLINK_GetDLLVersion()  returns 49604 (0000ms, 0546ms total)
T0428 000:602 JLINK_GetFirmwareString(...) (0000ms, 0546ms total)
T0428 000:602 JLINK_GetDLLVersion()  returns 49604 (0000ms, 0546ms total)
T0428 000:602 JLINK_GetCompileDateTime() (0000ms, 0546ms total)
T0428 000:602 JLINK_GetFirmwareString(...) (0000ms, 0546ms total)
T0428 000:602 JLINK_GetHardwareVersion()  returns 0x13880 (0000ms, 0546ms total)
T0428 000:603 JLINK_TIF_Select(JLINKARM_TIF_SWD)  returns 0x00 (0003ms, 0549ms total)
T0428 000:606 JLINK_SetSpeed(10000) (0001ms, 0550ms total)
T0428 000:607 JLINK_GetId() >0x108 TIF>Found SWD-DP with ID 0x2BA01477 >0x0D TIF> >0x28 TIF> >0x0D TIF> >0x28 TIF> >0x0D TIF> >0x21 TIF> >0x0D TIF> >0x28 TIF> >0x0D TIF> >0x28 TIF> >0x0D TIF> >0x28 TIF> >0x0D TIF> >0x21 TIF> >0x0D TIF> >0x21 TIF> >0x0D TIF> >0x28 TIF> >0x0D TIF> >0x21 TIF> >0x0D TIF> >0x21 TIF> >0x0D TIF> >0x28 TIF> >0x0D TIF> >0x21 TIF> >0x0D TIF> >0x21 TIF> >0x108 TIF>Found SWD-DP with ID 0x2BA01477 >0x0D TIF> >0x21 TIF> >0x0D TIF> >0x28 TIF> >0x0D TIF> >0x28 TIF> >0x0D TIF> >0x21 TIF>
 >0x0D TIF> >0x28 TIF> >0x0D TIF> >0x21 TIF> >0x0D TIF> >0x21 TIF> >0x0D TIF> >0x21 TIF> >0x0D TIF> >0x28 TIF> >0x0D TIF> >0x21 TIF> >0x0D TIF> >0x28 TIF> >0x0D TIF> >0x28 TIF> >0x0D TIF> >0x21 TIF> >0x0D TIF> >0x28 TIF> >0x0D TIF> >0x28 TIF> >0x0D TIF> >0x28 TIF> >0x0D TIF> >0x21 TIF> >0x0D TIF> >0x21 TIF> >0x0D TIF> >0x28 TIF> >0x0D TIF> >0x21 TIF> >0x0D TIF> >0x21 TIF>Found Cortex-M4 r0p1, Little endian. >0x0D TIF> >0x28 TIF> -- CPU_WriteMem(4 bytes @ 0xE0002000) -- CPU_ReadMem(4 bytes @ 0xE000EDF0)
 -- CPU_ReadMem(4 bytes @ 0xE0002000)FPUnit: 6 code (BP) slots and 2 literal slots -- CPU_ReadMem(4 bytes @ 0xE000EDFC) -- CPU_ReadMem(4 bytes @ 0xE0001000) -- CPU_WriteMem(4 bytes @ 0xE0001000) -- CPU_ReadMem(4 bytes @ 0xE000ED88) -- CPU_WriteMem(4 bytes @ 0xE000ED88) -- CPU_ReadMem(4 bytes @ 0xE000ED88) -- CPU_WriteMem(4 bytes @ 0xE000ED88) -- CPU_ReadMem(4 bytes @ 0xE00FF010)TPIU fitted. -- CPU_ReadMem(4 bytes @ 0xE00FF014)ETM fitted. -- CPU_ReadMem(4 bytes @ 0xE00FF018) >0x0D TIF> >0x21 TIF>
  returns 0x2BA01477 (0095ms, 0645ms total)
T0428 000:702 JLINK_GetDLLVersion()  returns 49604 (0000ms, 0645ms total)
T0428 000:702 JLINK_CORE_GetFound()  returns 0xE0000FF (0000ms, 0645ms total)
T0428 000:702 JLINK_GetDebugInfo(0x100) -- Value=0xE00FF003  returns 0x00 (0001ms, 0646ms total)
T0428 000:703 JLINK_ReadMem (0xE00FF000, 0x0020 Bytes, ...) -- CPU is running -- CPU_ReadMem(32 bytes @ 0xE00FF000) - Data: 03 F0 F0 FF 03 20 F0 FF 03 30 F0 FF 03 10 F0 FF ...  returns 0x00 (0002ms, 0648ms total)
T0428 000:705 JLINK_ReadMem (0xE000EFF0, 0x0010 Bytes, ...) -- CPU is running -- CPU_ReadMem(16 bytes @ 0xE000EFF0) - Data: 0D 00 00 00 E0 00 00 00 05 00 00 00 B1 00 00 00  returns 0x00 (0000ms, 0648ms total)
T0428 000:705 JLINK_ReadMem (0xE000EFD0, 0x0020 Bytes, ...) -- CPU is running -- CPU_ReadMem(32 bytes @ 0xE000EFD0) - Data: 04 00 00 00 00 00 00 00 00 00 00 00 00 00 00 00 ...  returns 0x00 (0002ms, 0650ms total)
T0428 000:707 JLINK_ReadMem (0xE0001FF0, 0x0010 Bytes, ...) -- CPU is running -- CPU_ReadMem(16 bytes @ 0xE0001FF0) - Data: 0D 00 00 00 E0 00 00 00 05 00 00 00 B1 00 00 00  returns 0x00 (0001ms, 0651ms total)
T0428 000:708 JLINK_ReadMem (0xE0001FD0, 0x0020 Bytes, ...) -- CPU is running -- CPU_ReadMem(32 bytes @ 0xE0001FD0) - Data: 04 00 00 00 00 00 00 00 00 00 00 00 00 00 00 00 ...  returns 0x00 (0001ms, 0652ms total)
T0428 000:709 JLINK_ReadMem (0xE0002FF0, 0x0010 Bytes, ...) -- CPU is running -- CPU_ReadMem(16 bytes @ 0xE0002FF0) - Data: 0D 00 00 00 E0 00 00 00 05 00 00 00 B1 00 00 00  returns 0x00 (0001ms, 0653ms total)
T0428 000:710 JLINK_ReadMem (0xE0002FD0, 0x0020 Bytes, ...) -- CPU is running -- CPU_ReadMem(32 bytes @ 0xE0002FD0) - Data: 04 00 00 00 00 00 00 00 00 00 00 00 00 00 00 00 ...  returns 0x00 (0001ms, 0654ms total)
T0428 000:711 JLINK_ReadMem (0xE0000FF0, 0x0010 Bytes, ...) -- CPU is running -- CPU_ReadMem(16 bytes @ 0xE0000FF0) - Data: 0D 00 00 00 E0 00 00 00 05 00 00 00 B1 00 00 00  returns 0x00 (0001ms, 0655ms total)
T0428 000:712 JLINK_ReadMem (0xE0000FD0, 0x0020 Bytes, ...) -- CPU is running -- CPU_ReadMem(32 bytes @ 0xE0000FD0) - Data: 04 00 00 00 00 00 00 00 00 00 00 00 00 00 00 00 ...  returns 0x00 (0001ms, 0656ms total)
T0428 000:713 JLINK_ReadMem (0xE0040FF0, 0x0010 Bytes, ...) -- CPU is running -- CPU_ReadMem(16 bytes @ 0xE0040FF0) - Data: 0D 00 00 00 90 00 00 00 05 00 00 00 B1 00 00 00  returns 0x00 (0001ms, 0657ms total)
T0428 000:714 JLINK_ReadMem (0xE0040FD0, 0x0020 Bytes, ...) -- CPU is running -- CPU_ReadMem(32 bytes @ 0xE0040FD0) - Data: 04 00 00 00 00 00 00 00 00 00 00 00 00 00 00 00 ...  returns 0x00 (0001ms, 0658ms total)
T0428 000:715 JLINK_ReadMem (0xE0041FF0, 0x0010 Bytes, ...) -- CPU is running -- CPU_ReadMem(16 bytes @ 0xE0041FF0) - Data: 0D 00 00 00 90 00 00 00 05 00 00 00 B1 00 00 00  returns 0x00 (0001ms, 0659ms total)
T0428 000:716 JLINK_ReadMem (0xE0041FD0, 0x0020 Bytes, ...) -- CPU is running -- CPU_ReadMem(32 bytes @ 0xE0041FD0) - Data: 04 00 00 00 00 00 00 00 00 00 00 00 00 00 00 00 ...  returns 0x00 (0001ms, 0660ms total)
T0428 000:717 JLINK_ReadMemU32(0xE000EF40, 0x0001 Items, ...) -- CPU is running -- CPU_ReadMem(4 bytes @ 0xE000EF40) - Data: 21 00 11 10  returns 0x01 (0001ms, 0661ms total)
T0428 000:718 JLINK_ReadMemU32(0xE000EF44, 0x0001 Items, ...) -- CPU is running -- CPU_ReadMem(4 bytes @ 0xE000EF44) - Data: 11 00 00 11  returns 0x01 (0001ms, 0662ms total)
T0428 000:719 JLINK_ReadMemU32(0xE000ED00, 0x0001 Items, ...) -- CPU is running -- CPU_ReadMem(4 bytes @ 0xE000ED00) - Data: 41 C2 0F 41  returns 0x01 (0001ms, 0663ms total)
T0428 000:720 JLINK_SetResetType(JLINKARM_RESET_TYPE_NORMAL)  returns JLINKARM_RESET_TYPE_NORMAL (0000ms, 0663ms total)
T0428 000:720 JLINK_Reset() -- CPU_WriteMem(4 bytes @ 0xE0002000) -- CPU_ReadMem(4 bytes @ 0xE000EDFC) -- CPU_WriteMem(4 bytes @ 0xE000EDFC) -- CPU_ReadMem(4 bytes @ 0xE0001000) (0018ms, 0681ms total)
T0428 000:738 JLINK_ReadReg(R15 (PC))  returns 0x08000358 (0000ms, 0681ms total)
T0428 000:738 JLINK_ReadReg(XPSR)  returns 0x01000000 (0000ms, 0681ms total)
T0428 000:738 JLINK_Halt()  returns 0x00 (0000ms, 0681ms total)
T0428 000:738 JLINK_IsHalted()  returns TRUE (0000ms, 0681ms total)
T0428 000:738 JLINK_ReadMemU32(0xE000EDF0, 0x0001 Items, ...) -- CPU_ReadMem(4 bytes @ 0xE000EDF0) - Data: 03 00 03 00  returns 0x01 (0001ms, 0682ms total)
T0428 000:739 JLINK_WriteU32(0xE000EDF0, 0xA05F0003) -- CPU_WriteMem(4 bytes @ 0xE000EDF0)  returns 0x00 (0001ms, 0683ms total)
T0428 000:740 JLINK_WriteU32(0xE000EDFC, 0x01000000) -- CPU_WriteMem(4 bytes @ 0xE000EDFC)  returns 0x00 (0001ms, 0684ms total)
T0428 000:742 JLINK_GetHWStatus(...)  returns 0x00 (0001ms, 0685ms total)
T0428 000:744 JLINK_GetNumBPUnits(Type = 0xFFFFFF00)  returns 0x06 (0000ms, 0685ms total)
T0428 000:744 JLINK_GetNumBPUnits(Type = 0xF0)  returns 0x2000 (0000ms, 0685ms total)
T0428 000:744 JLINK_GetNumWPUnits()  returns 0x04 (0000ms, 0685ms total)
T0428 000:744 JLINK_GetSpeed()  returns 0xFA0 (0000ms, 0685ms total)
T0428 000:744 JLINK_ReadMemU32(0xE000E004, 0x0001 Items, ...) -- CPU_ReadMem(4 bytes @ 0xE000E004) - Data: 02 00 00 00  returns 0x01 (0001ms, 0686ms total)
T0428 000:745 JLINK_ReadMemU32(0xE000E004, 0x0001 Items, ...) -- CPU_ReadMem(4 bytes @ 0xE000E004) - Data: 02 00 00 00  returns 0x01 (0001ms, 0687ms total)
T0428 000:746 JLINK_WriteMem(0xE0001000, 0x001C Bytes, ...) - Data: 01 00 00 00 00 00 00 00 00 00 00 00 00 00 00 00 ... -- CPU_WriteMem(28 bytes @ 0xE0001000)  returns 0x1C (0003ms, 0690ms total)
T0428 000:749 JLINK_ReadMem (0xE0001000, 0x001C Bytes, ...) -- CPU_ReadMem(28 bytes @ 0xE0001000) - Data: 01 00 00 40 00 00 00 00 00 00 00 00 00 00 00 00 ...  returns 0x00 (0001ms, 0691ms total)
T0428 000:750 JLINK_ReadReg(R15 (PC))  returns 0x08000358 (0000ms, 0691ms total)
T0428 000:750 JLINK_ReadReg(XPSR)  returns 0x01000000 (0000ms, 0691ms total)
T0428 000:909 JLINK_SetResetType(JLINKARM_RESET_TYPE_NORMAL)  returns JLINKARM_RESET_TYPE_NORMAL (0000ms, 0691ms total)
T0428 000:909 JLINK_Reset() -- CPU_WriteMem(4 bytes @ 0xE0002000) -- CPU_ReadMem(4 bytes @ 0xE000EDFC) -- CPU_WriteMem(4 bytes @ 0xE000EDFC) -- CPU_ReadMem(4 bytes @ 0xE0001000) (0018ms, 0709ms total)
T0428 000:927 JLINK_ReadReg(R15 (PC))  returns 0x08000358 (0000ms, 0709ms total)
T0428 000:927 JLINK_ReadReg(XPSR)  returns 0x01000000 (0000ms, 0709ms total)
T0428 000:928 JLINK_ReadMem (0x08000258, 0x003C Bytes, ...) -- CPU_ReadMem(128 bytes @ 0x08000240) -- Updating C cache (128 bytes @ 0x08000240) -- Read from C cache (60 bytes @ 0x08000258) - Data: 1F B5 0E F0 94 F8 01 F0 BD F8 04 00 00 20 00 21 ...  returns 0x00 (0002ms, 0711ms total)
T0428 000:930 JLINK_ReadMem (0x08000294, 0x003C Bytes, ...) -- CPU_ReadMem(64 bytes @ 0x080002C0) -- Updating C cache (64 bytes @ 0x080002C0) -- Read from C cache (60 bytes @ 0x08000294) - Data: FF F7 F2 FF 03 BC 09 F0 28 FD 00 00 2A 4B 19 68 ...  returns 0x00 (0002ms, 0713ms total)
T0428 000:932 JLINK_ReadMem (0x080002D0, 0x003C Bytes, ...) -- CPU_ReadMem(64 bytes @ 0x08000300) -- Updating C cache (64 bytes @ 0x08000300) -- Read from C cache (60 bytes @ 0x080002D0) - Data: 4F 8F BF F3 6F 8F 00 DF 00 BF 00 BF 08 ED 00 E0 ...  returns 0x00 (0002ms, 0715ms total)
T0428 000:934 JLINK_ReadMem (0x0800030C, 0x003C Bytes, ...) -- CPU_ReadMem(64 bytes @ 0x08000340) -- Updating C cache (64 bytes @ 0x08000340) -- Read from C cache (60 bytes @ 0x0800030C) - Data: F0 4F 10 60 08 B4 4F F0 BF 00 80 F3 11 88 BF F3 ...  returns 0x00 (0002ms, 0717ms total)
T0428 000:936 JLINK_ReadMem (0x08000348, 0x003C Bytes, ...) -- CPU_ReadMem(64 bytes @ 0x08000380) -- Updating C cache (64 bytes @ 0x08000380) -- Read from C cache (60 bytes @ 0x08000348) - Data: 6F 8F 70 47 34 01 00 20 EF F3 05 80 70 47 00 00 ...  returns 0x00 (0001ms, 0718ms total)
T0428 003:027 JLINK_ReadMem (0x080060C6, 0x025D Bytes, ...) -- CPU_ReadMem(640 bytes @ 0x080060C0) -- Updating C cache (640 bytes @ 0x080060C0) -- Read from C cache (605 bytes @ 0x080060C6) - Data: 0F 22 C4 78 1C B3 17 4C 24 68 04 F4 E0 64 C4 F5 ...  returns 0x00 (0006ms, 0724ms total)
T0428 004:183 JLINK_ReadMem (0x200004CC, 0x0020 Bytes, ...) -- CPU_ReadMem(64 bytes @ 0x200004C0) -- Updating C cache (64 bytes @ 0x200004C0) -- Read from C cache (32 bytes @ 0x200004CC) - Data: 00 00 00 00 00 00 00 00 00 00 00 00 00 00 00 00 ...  returns 0x00 (0004ms, 0728ms total)
T0428 004:220 JLINK_ReadMem (0x20000596, 0x0020 Bytes, ...) -- CPU_ReadMem(64 bytes @ 0x20000580) -- Updating C cache (64 bytes @ 0x20000580) -- Read from C cache (32 bytes @ 0x20000596) - Data: 00 00 00 00 00 00 00 00 00 00 00 00 00 00 00 00 ...  returns 0x00 (0002ms, 0730ms total)
T0428 004:228 JLINK_ReadMem (0x2000006C, 0x0002 Bytes, ...) -- CPU_ReadMem(64 bytes @ 0x20000040) -- Updating C cache (64 bytes @ 0x20000040) -- Read from C cache (2 bytes @ 0x2000006C) - Data: 00 00  returns 0x00 (0002ms, 0732ms total)
T14FC 004:334 JLINK_SetBPEx(Addr = 0x0800A6E8, Type = 0xFFFFFFF2)  returns 0x00000001 (0000ms, 0732ms total)
T14FC 004:334 JLINK_Go() -- CPU_WriteMem(4 bytes @ 0xE0002000) -- CPU_WriteMem(4 bytes @ 0xE0002008) -- CPU_WriteMem(4 bytes @ 0xE000200C) -- CPU_WriteMem(4 bytes @ 0xE0002010) -- CPU_WriteMem(4 bytes @ 0xE0002014) -- CPU_WriteMem(4 bytes @ 0xE0002018) -- CPU_WriteMem(4 bytes @ 0xE000201C) -- CPU_WriteMem(4 bytes @ 0xE0001004) (0011ms, 0743ms total)
T14FC 004:445 JLINK_IsHalted()  returns TRUE (0005ms, 0748ms total)
T14FC 004:450 JLINK_Halt()  returns 0x00 (0000ms, 0743ms total)
T14FC 004:450 JLINK_IsHalted()  returns TRUE (0000ms, 0743ms total)
T14FC 004:450 JLINK_IsHalted()  returns TRUE (0000ms, 0743ms total)
T14FC 004:450 JLINK_IsHalted()  returns TRUE (0001ms, 0744ms total)
T14FC 004:451 JLINK_ReadReg(R15 (PC))  returns 0x0800A6E8 (0000ms, 0743ms total)
T14FC 004:451 JLINK_ReadReg(XPSR)  returns 0x61000000 (0000ms, 0743ms total)
T14FC 004:451 JLINK_ClrBPEx(BPHandle = 0x00000001)  returns 0x00 (0000ms, 0743ms total)
T14FC 004:451 JLINK_ReadMemU32(0xE000ED30, 0x0001 Items, ...) -- CPU_ReadMem(4 bytes @ 0xE000ED30) - Data: 03 00 00 00  returns 0x01 (0000ms, 0743ms total)
T14FC 004:451 JLINK_ReadMemU32(0xE0001028, 0x0001 Items, ...) -- CPU_ReadMem(4 bytes @ 0xE0001028) - Data: 00 00 00 00  returns 0x01 (0001ms, 0744ms total)
T14FC 004:452 JLINK_ReadMemU32(0xE0001038, 0x0001 Items, ...) -- CPU_ReadMem(4 bytes @ 0xE0001038) - Data: 00 02 00 00  returns 0x01 (0001ms, 0745ms total)
T14FC 004:453 JLINK_ReadMemU32(0xE0001048, 0x0001 Items, ...) -- CPU_ReadMem(4 bytes @ 0xE0001048) - Data: 00 00 00 00  returns 0x01 (0001ms, 0746ms total)
T14FC 004:454 JLINK_ReadMemU32(0xE0001058, 0x0001 Items, ...) -- CPU_ReadMem(4 bytes @ 0xE0001058) - Data: 00 00 00 00  returns 0x01 (0001ms, 0747ms total)
T14FC 004:456 JLINK_ReadReg(R0)  returns 0x20019720 (0000ms, 0747ms total)
T14FC 004:456 JLINK_ReadReg(R1)  returns 0x20019920 (0000ms, 0747ms total)
T14FC 004:456 JLINK_ReadReg(R2)  returns 0x20019920 (0000ms, 0747ms total)
T14FC 004:456 JLINK_ReadReg(R3)  returns 0x20019920 (0000ms, 0747ms total)
T14FC 004:456 JLINK_ReadReg(R4)  returns 0x00000000 (0000ms, 0747ms total)
T14FC 004:456 JLINK_ReadReg(R5)  returns 0x200196C0 (0000ms, 0747ms total)
T14FC 004:456 JLINK_ReadReg(R6)  returns 0x00000000 (0000ms, 0747ms total)
T14FC 004:456 JLINK_ReadReg(R7)  returns 0x00000000 (0000ms, 0747ms total)
T14FC 004:456 JLINK_ReadReg(R8)  returns 0x00000000 (0000ms, 0747ms total)
T14FC 004:456 JLINK_ReadReg(R9)  returns 0x00000000 (0000ms, 0747ms total)
T14FC 004:456 JLINK_ReadReg(R10)  returns 0x0800E8FC (0000ms, 0747ms total)
T14FC 004:456 JLINK_ReadReg(R11)  returns 0x00000000 (0000ms, 0747ms total)
T14FC 004:456 JLINK_ReadReg(R12)  returns 0x20019700 (0000ms, 0747ms total)
T14FC 004:456 JLINK_ReadReg(R13 (SP))  returns 0x20019D20 (0000ms, 0747ms total)
T14FC 004:456 JLINK_ReadReg(R14)  returns 0x0800028F (0000ms, 0747ms total)
T14FC 004:456 JLINK_ReadReg(R15 (PC))  returns 0x0800A6E8 (0000ms, 0747ms total)
T14FC 004:456 JLINK_ReadReg(XPSR)  returns 0x61000000 (0000ms, 0747ms total)
T14FC 004:456 JLINK_ReadReg(MSP)  returns 0x20019D20 (0000ms, 0747ms total)
T14FC 004:456 JLINK_ReadReg(PSP)  returns 0x00000000 (0000ms, 0747ms total)
T14FC 004:456 JLINK_ReadReg(CFBP)  returns 0x04000000 (0001ms, 0748ms total)
T14FC 004:457 JLINK_ReadReg(FPSCR)  returns 0x03000000 (0007ms, 0755ms total)
T14FC 004:464 JLINK_ReadReg(FPS0)  returns 0x00000000 (0000ms, 0755ms total)
T14FC 004:464 JLINK_ReadReg(FPS1)  returns 0x00000000 (0000ms, 0755ms total)
T14FC 004:464 JLINK_ReadReg(FPS2)  returns 0x00000000 (0000ms, 0755ms total)
T14FC 004:464 JLINK_ReadReg(FPS3)  returns 0x00000000 (0000ms, 0755ms total)
T14FC 004:464 JLINK_ReadReg(FPS4)  returns 0x00000000 (0000ms, 0755ms total)
T14FC 004:464 JLINK_ReadReg(FPS5)  returns 0x00000000 (0000ms, 0755ms total)
T14FC 004:464 JLINK_ReadReg(FPS6)  returns 0x00000000 (0000ms, 0755ms total)
T14FC 004:464 JLINK_ReadReg(FPS7)  returns 0x00000000 (0000ms, 0755ms total)
T14FC 004:464 JLINK_ReadReg(FPS8)  returns 0x00000000 (0000ms, 0755ms total)
T14FC 004:464 JLINK_ReadReg(FPS9)  returns 0x00000000 (0000ms, 0755ms total)
T14FC 004:464 JLINK_ReadReg(FPS10)  returns 0x00000000 (0000ms, 0755ms total)
T14FC 004:464 JLINK_ReadReg(FPS11)  returns 0x00000000 (0000ms, 0755ms total)
T14FC 004:464 JLINK_ReadReg(FPS12)  returns 0x00000000 (0000ms, 0755ms total)
T14FC 004:464 JLINK_ReadReg(FPS13)  returns 0x00000000 (0000ms, 0755ms total)
T14FC 004:464 JLINK_ReadReg(FPS14)  returns 0x00000000 (0000ms, 0755ms total)
T14FC 004:464 JLINK_ReadReg(FPS15)  returns 0x00000000 (0000ms, 0755ms total)
T14FC 004:464 JLINK_ReadReg(FPS16)  returns 0x00000000 (0000ms, 0755ms total)
T14FC 004:464 JLINK_ReadReg(FPS17)  returns 0x00000000 (0000ms, 0755ms total)
T14FC 004:464 JLINK_ReadReg(FPS18)  returns 0x00000000 (0000ms, 0755ms total)
T14FC 004:464 JLINK_ReadReg(FPS19)  returns 0x00000000 (0000ms, 0755ms total)
T14FC 004:464 JLINK_ReadReg(FPS20)  returns 0x00000000 (0000ms, 0755ms total)
T14FC 004:464 JLINK_ReadReg(FPS21)  returns 0x00000000 (0000ms, 0755ms total)
T14FC 004:464 JLINK_ReadReg(FPS22)  returns 0x00000000 (0000ms, 0755ms total)
T14FC 004:465 JLINK_ReadReg(FPS23)  returns 0x00000000 (0000ms, 0756ms total)
T14FC 004:465 JLINK_ReadReg(FPS24)  returns 0x00000000 (0000ms, 0756ms total)
T14FC 004:465 JLINK_ReadReg(FPS25)  returns 0x00000000 (0000ms, 0756ms total)
T14FC 004:465 JLINK_ReadReg(FPS26)  returns 0x00000000 (0000ms, 0756ms total)
T14FC 004:465 JLINK_ReadReg(FPS27)  returns 0x00000000 (0000ms, 0756ms total)
T14FC 004:465 JLINK_ReadReg(FPS28)  returns 0x00000000 (0000ms, 0756ms total)
T14FC 004:465 JLINK_ReadReg(FPS29)  returns 0x00000000 (0000ms, 0756ms total)
T14FC 004:465 JLINK_ReadReg(FPS30)  returns 0x00000000 (0000ms, 0756ms total)
T14FC 004:465 JLINK_ReadReg(FPS31)  returns 0x00000000 (0000ms, 0756ms total)
T0428 004:611 JLINK_ReadMem (0x200004CC, 0x0020 Bytes, ...) -- CPU_ReadMem(64 bytes @ 0x200004C0) -- Updating C cache (64 bytes @ 0x200004C0) -- Read from C cache (32 bytes @ 0x200004CC) - Data: 00 00 00 00 00 00 00 00 00 00 00 00 00 00 00 00 ...  returns 0x00 (0002ms, 0758ms total)
T0428 004:616 JLINK_ReadMem (0x20000596, 0x0020 Bytes, ...) -- CPU_ReadMem(64 bytes @ 0x20000580) -- Updating C cache (64 bytes @ 0x20000580) -- Read from C cache (32 bytes @ 0x20000596) - Data: 00 00 00 00 00 00 00 00 00 00 00 00 00 00 00 00 ...  returns 0x00 (0002ms, 0760ms total)
T0428 004:619 JLINK_ReadMem (0x2000006C, 0x0002 Bytes, ...) -- CPU_ReadMem(64 bytes @ 0x20000040) -- Updating C cache (64 bytes @ 0x20000040) -- Read from C cache (2 bytes @ 0x2000006C) - Data: 00 00  returns 0x00 (0002ms, 0762ms total)
T0428 004:624 JLINK_ReadMem (0x080060C6, 0x025D Bytes, ...) -- CPU_ReadMem(640 bytes @ 0x080060C0) -- Updating C cache (640 bytes @ 0x080060C0) -- Read from C cache (605 bytes @ 0x080060C6) - Data: 0F 22 C4 78 1C B3 17 4C 24 68 04 F4 E0 64 C4 F5 ...  returns 0x00 (0005ms, 0767ms total)
T0428 004:634 JLINK_ReadMem (0x0800A6E4, 0x003C Bytes, ...) -- CPU_ReadMem(128 bytes @ 0x0800A6C0) -- Updating C cache (128 bytes @ 0x0800A6C0) -- Read from C cache (60 bytes @ 0x0800A6E4) - Data: 00 20 FC E7 10 B5 4F F4 40 70 FB F7 23 FD FB F7 ...  returns 0x00 (0003ms, 0770ms total)
T14FC 041:345 JLINK_SetBPEx(Addr = 0x0800CC96, Type = 0xFFFFFFF2)  returns 0x00000002 (0001ms, 0771ms total)
T14FC 041:346 JLINK_Go() -- CPU_WriteMem(4 bytes @ 0xE0002000) -- CPU_WriteMem(4 bytes @ 0xE0002008) (0004ms, 0775ms total)
T14FC 041:450 JLINK_IsHalted()  returns TRUE (0005ms, 0780ms total)
T14FC 041:455 JLINK_Halt()  returns 0x00 (0000ms, 0775ms total)
T14FC 041:455 JLINK_IsHalted()  returns TRUE (0000ms, 0775ms total)
T14FC 041:455 JLINK_IsHalted()  returns TRUE (0000ms, 0775ms total)
T14FC 041:455 JLINK_IsHalted()  returns TRUE (0000ms, 0775ms total)
T14FC 041:455 JLINK_ReadReg(R15 (PC))  returns 0x0800CC96 (0000ms, 0775ms total)
T14FC 041:455 JLINK_ReadReg(XPSR)  returns 0x81000000 (0000ms, 0775ms total)
T14FC 041:455 JLINK_ClrBPEx(BPHandle = 0x00000002)  returns 0x00 (0000ms, 0775ms total)
T14FC 041:455 JLINK_ReadMemU32(0xE000ED30, 0x0001 Items, ...) -- CPU_ReadMem(4 bytes @ 0xE000ED30) - Data: 03 00 00 00  returns 0x01 (0001ms, 0776ms total)
T14FC 041:456 JLINK_ReadMemU32(0xE0001028, 0x0001 Items, ...) -- CPU_ReadMem(4 bytes @ 0xE0001028) - Data: 00 00 00 00  returns 0x01 (0001ms, 0777ms total)
T14FC 041:457 JLINK_ReadMemU32(0xE0001038, 0x0001 Items, ...) -- CPU_ReadMem(4 bytes @ 0xE0001038) - Data: 00 02 00 00  returns 0x01 (0001ms, 0778ms total)
T14FC 041:458 JLINK_ReadMemU32(0xE0001048, 0x0001 Items, ...) -- CPU_ReadMem(4 bytes @ 0xE0001048) - Data: 00 00 00 00  returns 0x01 (0001ms, 0779ms total)
T14FC 041:459 JLINK_ReadMemU32(0xE0001058, 0x0001 Items, ...) -- CPU_ReadMem(4 bytes @ 0xE0001058) - Data: 00 00 00 00  returns 0x01 (0001ms, 0780ms total)
T14FC 041:460 JLINK_ReadReg(R0)  returns 0x00000001 (0000ms, 0780ms total)
T14FC 041:460 JLINK_ReadReg(R1)  returns 0x20000118 (0000ms, 0780ms total)
T14FC 041:460 JLINK_ReadReg(R2)  returns 0x00251D0A (0000ms, 0780ms total)
T14FC 041:460 JLINK_ReadReg(R3)  returns 0x110A0102 (0000ms, 0780ms total)
T14FC 041:460 JLINK_ReadReg(R4)  returns 0xA5A5A5A5 (0000ms, 0780ms total)
T14FC 041:460 JLINK_ReadReg(R5)  returns 0xA5A5A5A5 (0000ms, 0780ms total)
T14FC 041:460 JLINK_ReadReg(R6)  returns 0xA5A5A5A5 (0000ms, 0780ms total)
T14FC 041:460 JLINK_ReadReg(R7)  returns 0xA5A5A5A5 (0000ms, 0780ms total)
T14FC 041:460 JLINK_ReadReg(R8)  returns 0xA5A5A5A5 (0000ms, 0780ms total)
T14FC 041:460 JLINK_ReadReg(R9)  returns 0xA5A5A5A5 (0001ms, 0781ms total)
T14FC 041:461 JLINK_ReadReg(R10)  returns 0xA5A5A5A5 (0000ms, 0781ms total)
T14FC 041:461 JLINK_ReadReg(R11)  returns 0xA5A5A5A5 (0000ms, 0781ms total)
T14FC 041:461 JLINK_ReadReg(R12)  returns 0x00000000 (0000ms, 0781ms total)
T14FC 041:461 JLINK_ReadReg(R13 (SP))  returns 0x2000B360 (0000ms, 0781ms total)
T14FC 041:461 JLINK_ReadReg(R14)  returns 0x0800D0E5 (0000ms, 0781ms total)
T14FC 041:461 JLINK_ReadReg(R15 (PC))  returns 0x0800CC96 (0000ms, 0781ms total)
T14FC 041:461 JLINK_ReadReg(XPSR)  returns 0x81000000 (0000ms, 0781ms total)
T14FC 041:461 JLINK_ReadReg(MSP)  returns 0x20019CB8 (0000ms, 0781ms total)
T14FC 041:461 JLINK_ReadReg(PSP)  returns 0x2000B360 (0000ms, 0781ms total)
T14FC 041:461 JLINK_ReadReg(CFBP)  returns 0x02000000 (0000ms, 0781ms total)
T14FC 041:461 JLINK_ReadReg(FPSCR)  returns 0x03000000 (0007ms, 0788ms total)
T14FC 041:468 JLINK_ReadReg(FPS0)  returns 0x148D0128 (0000ms, 0788ms total)
T14FC 041:468 JLINK_ReadReg(FPS1)  returns 0x4098FCC5 (0000ms, 0788ms total)
T14FC 041:468 JLINK_ReadReg(FPS2)  returns 0xC4F3A22C (0000ms, 0788ms total)
T14FC 041:468 JLINK_ReadReg(FPS3)  returns 0x4061B539 (0000ms, 0788ms total)
T14FC 041:468 JLINK_ReadReg(FPS4)  returns 0x7DF5CF25 (0000ms, 0788ms total)
T14FC 041:468 JLINK_ReadReg(FPS5)  returns 0x405D4A38 (0000ms, 0788ms total)
T14FC 041:468 JLINK_ReadReg(FPS6)  returns 0x19008206 (0000ms, 0788ms total)
T14FC 041:468 JLINK_ReadReg(FPS7)  returns 0x403FE23A (0000ms, 0788ms total)
T14FC 041:468 JLINK_ReadReg(FPS8)  returns 0x00000000 (0000ms, 0788ms total)
T14FC 041:468 JLINK_ReadReg(FPS9)  returns 0x00000000 (0000ms, 0788ms total)
T14FC 041:468 JLINK_ReadReg(FPS10)  returns 0x00000000 (0000ms, 0788ms total)
T14FC 041:468 JLINK_ReadReg(FPS11)  returns 0x00000000 (0000ms, 0788ms total)
T14FC 041:468 JLINK_ReadReg(FPS12)  returns 0x00000000 (0000ms, 0788ms total)
T14FC 041:469 JLINK_ReadReg(FPS13)  returns 0x00000000 (0000ms, 0789ms total)
T14FC 041:469 JLINK_ReadReg(FPS14)  returns 0x00000000 (0000ms, 0789ms total)
T14FC 041:469 JLINK_ReadReg(FPS15)  returns 0x00000000 (0000ms, 0789ms total)
T14FC 041:469 JLINK_ReadReg(FPS16)  returns 0x00000000 (0000ms, 0789ms total)
T14FC 041:469 JLINK_ReadReg(FPS17)  returns 0x00000000 (0000ms, 0789ms total)
T14FC 041:469 JLINK_ReadReg(FPS18)  returns 0x00000000 (0000ms, 0789ms total)
T14FC 041:469 JLINK_ReadReg(FPS19)  returns 0x00000000 (0000ms, 0789ms total)
T14FC 041:469 JLINK_ReadReg(FPS20)  returns 0x00000000 (0000ms, 0789ms total)
T14FC 041:469 JLINK_ReadReg(FPS21)  returns 0x00000000 (0000ms, 0789ms total)
T14FC 041:469 JLINK_ReadReg(FPS22)  returns 0x00000000 (0000ms, 0789ms total)
T14FC 041:469 JLINK_ReadReg(FPS23)  returns 0x00000000 (0000ms, 0789ms total)
T14FC 041:469 JLINK_ReadReg(FPS24)  returns 0x00000000 (0000ms, 0789ms total)
T14FC 041:469 JLINK_ReadReg(FPS25)  returns 0x00000000 (0000ms, 0789ms total)
T14FC 041:469 JLINK_ReadReg(FPS26)  returns 0x00000000 (0000ms, 0789ms total)
T14FC 041:469 JLINK_ReadReg(FPS27)  returns 0x00000000 (0000ms, 0789ms total)
T14FC 041:469 JLINK_ReadReg(FPS28)  returns 0x00000000 (0000ms, 0789ms total)
T14FC 041:469 JLINK_ReadReg(FPS29)  returns 0x00000000 (0000ms, 0789ms total)
T14FC 041:469 JLINK_ReadReg(FPS30)  returns 0x00000000 (0000ms, 0789ms total)
T14FC 041:469 JLINK_ReadReg(FPS31)  returns 0x00000000 (0000ms, 0789ms total)
T0428 041:471 JLINK_ReadMem (0x200004CC, 0x0020 Bytes, ...) -- CPU_ReadMem(64 bytes @ 0x200004C0) -- Updating C cache (64 bytes @ 0x200004C0) -- Read from C cache (32 bytes @ 0x200004CC) - Data: 00 00 00 00 00 00 00 00 00 00 00 00 00 00 00 00 ...  returns 0x00 (0002ms, 0791ms total)
T0428 041:476 JLINK_ReadMem (0x20000596, 0x0020 Bytes, ...) -- CPU_ReadMem(64 bytes @ 0x20000580) -- Updating C cache (64 bytes @ 0x20000580) -- Read from C cache (32 bytes @ 0x20000596) - Data: 00 00 00 00 00 00 00 00 00 00 00 00 00 00 00 00 ...  returns 0x00 (0002ms, 0793ms total)
T0428 041:478 JLINK_ReadMem (0x2000006C, 0x0002 Bytes, ...) -- CPU_ReadMem(64 bytes @ 0x20000040) -- Updating C cache (64 bytes @ 0x20000040) -- Read from C cache (2 bytes @ 0x2000006C) - Data: 00 00  returns 0x00 (0002ms, 0795ms total)
T0428 041:483 JLINK_ReadMem (0x080060C6, 0x025D Bytes, ...) -- CPU_ReadMem(640 bytes @ 0x080060C0) -- Updating C cache (640 bytes @ 0x080060C0) -- Read from C cache (605 bytes @ 0x080060C6) - Data: 0F 22 C4 78 1C B3 17 4C 24 68 04 F4 E0 64 C4 F5 ...  returns 0x00 (0006ms, 0801ms total)
T0428 041:494 JLINK_ReadMem (0x0800CC90, 0x003C Bytes, ...) -- CPU_ReadMem(128 bytes @ 0x0800CC80) -- Updating C cache (128 bytes @ 0x0800CC80) -- Read from C cache (60 bytes @ 0x0800CC90) - Data: FA F7 8E FE 0B E0 44 48 00 78 01 28 07 D1 03 98 ...  returns 0x00 (0003ms, 0804ms total)
T14FC 047:249 JLINK_SetBPEx(Addr = 0x0800CCF0, Type = 0xFFFFFFF2)  returns 0x00000003 (0001ms, 0805ms total)
T14FC 047:250 JLINK_Go() -- CPU_WriteMem(4 bytes @ 0xE0002000) -- CPU_WriteMem(4 bytes @ 0xE0002008) (0004ms, 0809ms total)
T14FC 047:354 JLINK_IsHalted()  returns TRUE (0004ms, 0813ms total)
T14FC 047:358 JLINK_Halt()  returns 0x00 (0000ms, 0809ms total)
T14FC 047:358 JLINK_IsHalted()  returns TRUE (0000ms, 0809ms total)
T14FC 047:358 JLINK_IsHalted()  returns TRUE (0000ms, 0809ms total)
T14FC 047:359 JLINK_IsHalted()  returns TRUE (0000ms, 0809ms total)
T14FC 047:359 JLINK_ReadReg(R15 (PC))  returns 0x0800CCF0 (0000ms, 0809ms total)
T14FC 047:359 JLINK_ReadReg(XPSR)  returns 0x41000000 (0000ms, 0809ms total)
T14FC 047:359 JLINK_ClrBPEx(BPHandle = 0x00000003)  returns 0x00 (0000ms, 0809ms total)
T14FC 047:359 JLINK_ReadMemU32(0xE000ED30, 0x0001 Items, ...) -- CPU_ReadMem(4 bytes @ 0xE000ED30) - Data: 03 00 00 00  returns 0x01 (0000ms, 0809ms total)
T14FC 047:359 JLINK_ReadMemU32(0xE0001028, 0x0001 Items, ...) -- CPU_ReadMem(4 bytes @ 0xE0001028) - Data: 00 00 00 00  returns 0x01 (0001ms, 0810ms total)
T14FC 047:360 JLINK_ReadMemU32(0xE0001038, 0x0001 Items, ...) -- CPU_ReadMem(4 bytes @ 0xE0001038) - Data: 00 02 00 00  returns 0x01 (0001ms, 0811ms total)
T14FC 047:361 JLINK_ReadMemU32(0xE0001048, 0x0001 Items, ...) -- CPU_ReadMem(4 bytes @ 0xE0001048) - Data: 00 00 00 00  returns 0x01 (0001ms, 0812ms total)
T14FC 047:362 JLINK_ReadMemU32(0xE0001058, 0x0001 Items, ...) -- CPU_ReadMem(4 bytes @ 0xE0001058) - Data: 00 00 00 00  returns 0x01 (0001ms, 0813ms total)
T14FC 047:364 JLINK_ReadReg(R0)  returns 0x2008BE85 (0000ms, 0813ms total)
T14FC 047:364 JLINK_ReadReg(R1)  returns 0x00000004 (0000ms, 0813ms total)
T14FC 047:364 JLINK_ReadReg(R2)  returns 0x00000001 (0000ms, 0813ms total)
T14FC 047:364 JLINK_ReadReg(R3)  returns 0x40002860 (0000ms, 0813ms total)
T14FC 047:364 JLINK_ReadReg(R4)  returns 0x2008BE85 (0000ms, 0813ms total)
T14FC 047:364 JLINK_ReadReg(R5)  returns 0xA5A5A5A5 (0000ms, 0813ms total)
T14FC 047:364 JLINK_ReadReg(R6)  returns 0xA5A5A5A5 (0000ms, 0813ms total)
T14FC 047:364 JLINK_ReadReg(R7)  returns 0x2008C591 (0000ms, 0813ms total)
T14FC 047:364 JLINK_ReadReg(R8)  returns 0xA5A5A5A5 (0000ms, 0813ms total)
T14FC 047:364 JLINK_ReadReg(R9)  returns 0xA5A5A5A5 (0000ms, 0813ms total)
T14FC 047:364 JLINK_ReadReg(R10)  returns 0xA5A5A5A5 (0000ms, 0813ms total)
T14FC 047:364 JLINK_ReadReg(R11)  returns 0xA5A5A5A5 (0000ms, 0813ms total)
T14FC 047:364 JLINK_ReadReg(R12)  returns 0x00000000 (0000ms, 0813ms total)
T14FC 047:364 JLINK_ReadReg(R13 (SP))  returns 0x2000B360 (0000ms, 0813ms total)
T14FC 047:364 JLINK_ReadReg(R14)  returns 0x0800CCEF (0000ms, 0813ms total)
T14FC 047:364 JLINK_ReadReg(R15 (PC))  returns 0x0800CCF0 (0000ms, 0813ms total)
T14FC 047:364 JLINK_ReadReg(XPSR)  returns 0x41000000 (0000ms, 0813ms total)
T14FC 047:364 JLINK_ReadReg(MSP)  returns 0x20019CB8 (0000ms, 0813ms total)
T14FC 047:364 JLINK_ReadReg(PSP)  returns 0x2000B360 (0000ms, 0813ms total)
T14FC 047:364 JLINK_ReadReg(CFBP)  returns 0x02000000 (0000ms, 0813ms total)
T14FC 047:364 JLINK_ReadReg(FPSCR)  returns 0x03000000 (0008ms, 0821ms total)
T14FC 047:372 JLINK_ReadReg(FPS0)  returns 0x148D0128 (0000ms, 0821ms total)
T14FC 047:372 JLINK_ReadReg(FPS1)  returns 0x4098FCC5 (0000ms, 0821ms total)
T14FC 047:372 JLINK_ReadReg(FPS2)  returns 0xC4F3A22C (0000ms, 0821ms total)
T14FC 047:372 JLINK_ReadReg(FPS3)  returns 0x4061B539 (0000ms, 0821ms total)
T14FC 047:372 JLINK_ReadReg(FPS4)  returns 0x7DF5CF25 (0000ms, 0821ms total)
T14FC 047:372 JLINK_ReadReg(FPS5)  returns 0x405D4A38 (0000ms, 0821ms total)
T14FC 047:372 JLINK_ReadReg(FPS6)  returns 0x19008206 (0000ms, 0821ms total)
T14FC 047:372 JLINK_ReadReg(FPS7)  returns 0x403FE23A (0001ms, 0822ms total)
T14FC 047:373 JLINK_ReadReg(FPS8)  returns 0x00000000 (0000ms, 0822ms total)
T14FC 047:373 JLINK_ReadReg(FPS9)  returns 0x00000000 (0000ms, 0822ms total)
T14FC 047:373 JLINK_ReadReg(FPS10)  returns 0x00000000 (0000ms, 0822ms total)
T14FC 047:373 JLINK_ReadReg(FPS11)  returns 0x00000000 (0000ms, 0822ms total)
T14FC 047:373 JLINK_ReadReg(FPS12)  returns 0x00000000 (0000ms, 0822ms total)
T14FC 047:373 JLINK_ReadReg(FPS13)  returns 0x00000000 (0000ms, 0822ms total)
T14FC 047:373 JLINK_ReadReg(FPS14)  returns 0x00000000 (0000ms, 0822ms total)
T14FC 047:373 JLINK_ReadReg(FPS15)  returns 0x00000000 (0000ms, 0822ms total)
T14FC 047:373 JLINK_ReadReg(FPS16)  returns 0x00000000 (0000ms, 0822ms total)
T14FC 047:373 JLINK_ReadReg(FPS17)  returns 0x00000000 (0000ms, 0822ms total)
T14FC 047:373 JLINK_ReadReg(FPS18)  returns 0x00000000 (0000ms, 0822ms total)
T14FC 047:373 JLINK_ReadReg(FPS19)  returns 0x00000000 (0000ms, 0822ms total)
T14FC 047:373 JLINK_ReadReg(FPS20)  returns 0x00000000 (0000ms, 0822ms total)
T14FC 047:373 JLINK_ReadReg(FPS21)  returns 0x00000000 (0000ms, 0822ms total)
T14FC 047:373 JLINK_ReadReg(FPS22)  returns 0x00000000 (0000ms, 0822ms total)
T14FC 047:373 JLINK_ReadReg(FPS23)  returns 0x00000000 (0000ms, 0822ms total)
T14FC 047:373 JLINK_ReadReg(FPS24)  returns 0x00000000 (0000ms, 0822ms total)
T14FC 047:373 JLINK_ReadReg(FPS25)  returns 0x00000000 (0000ms, 0822ms total)
T14FC 047:373 JLINK_ReadReg(FPS26)  returns 0x00000000 (0000ms, 0822ms total)
T14FC 047:373 JLINK_ReadReg(FPS27)  returns 0x00000000 (0000ms, 0822ms total)
T14FC 047:373 JLINK_ReadReg(FPS28)  returns 0x00000000 (0000ms, 0822ms total)
T14FC 047:373 JLINK_ReadReg(FPS29)  returns 0x00000000 (0000ms, 0822ms total)
T14FC 047:373 JLINK_ReadReg(FPS30)  returns 0x00000000 (0000ms, 0822ms total)
T14FC 047:373 JLINK_ReadReg(FPS31)  returns 0x00000000 (0000ms, 0822ms total)
T0428 047:378 JLINK_ReadMem (0x200004CC, 0x0020 Bytes, ...) -- CPU_ReadMem(64 bytes @ 0x200004C0) -- Updating C cache (64 bytes @ 0x200004C0) -- Read from C cache (32 bytes @ 0x200004CC) - Data: 00 00 00 00 00 00 00 00 00 00 00 00 00 00 00 00 ...  returns 0x00 (0002ms, 0824ms total)
T0428 047:383 JLINK_ReadMem (0x20000596, 0x0020 Bytes, ...) -- CPU_ReadMem(64 bytes @ 0x20000580) -- Updating C cache (64 bytes @ 0x20000580) -- Read from C cache (32 bytes @ 0x20000596) - Data: 00 00 00 00 00 00 00 00 00 00 00 00 00 00 00 00 ...  returns 0x00 (0002ms, 0826ms total)
T0428 047:386 JLINK_ReadMem (0x2000006C, 0x0002 Bytes, ...) -- CPU_ReadMem(64 bytes @ 0x20000040) -- Updating C cache (64 bytes @ 0x20000040) -- Read from C cache (2 bytes @ 0x2000006C) - Data: 00 00  returns 0x00 (0002ms, 0828ms total)
T0428 047:390 JLINK_ReadMem (0x080060C6, 0x025D Bytes, ...) -- CPU_ReadMem(640 bytes @ 0x080060C0) -- Updating C cache (640 bytes @ 0x080060C0) -- Read from C cache (605 bytes @ 0x080060C6) - Data: 0F 22 C4 78 1C B3 17 4C 24 68 04 F4 E0 64 C4 F5 ...  returns 0x00 (0005ms, 0833ms total)
T0428 047:400 JLINK_ReadMem (0x0800CCE8, 0x003C Bytes, ...) -- CPU_ReadMem(128 bytes @ 0x0800CCC0) -- Updating C cache (128 bytes @ 0x0800CCC0) -- Read from C cache (60 bytes @ 0x0800CCE8) - Data: 04 20 F9 F7 AB FF 04 46 2E 48 00 68 C0 EB 00 11 ...  returns 0x00 (0002ms, 0835ms total)
T14FC 052:988 JLINK_Step() -- Read from C cache (2 bytes @ 0x0800CCF0) -- CPU_ReadMem(4 bytes @ 0xE0001004) -- CPU_ReadMem(64 bytes @ 0x0800CD80) -- Updating C cache (64 bytes @ 0x0800CD80) -- Read from C cache (4 bytes @ 0x0800CDAC) -- Simulated  returns 0x00 (0004ms, 0839ms total)
T14FC 052:993 JLINK_ReadReg(R15 (PC))  returns 0x0800CCF2 (0000ms, 0839ms total)
T14FC 052:993 JLINK_ReadReg(XPSR)  returns 0x41000000 (0000ms, 0839ms total)
T14FC 052:993 JLINK_Step() -- Read from C cache (2 bytes @ 0x0800CCF2) -- Read from C cache (4 bytes @ 0x2000004C) -- Simulated  returns 0x00 (0000ms, 0839ms total)
T14FC 052:993 JLINK_ReadReg(R15 (PC))  returns 0x0800CCF4 (0000ms, 0839ms total)
T14FC 052:993 JLINK_ReadReg(XPSR)  returns 0x41000000 (0000ms, 0839ms total)
T14FC 052:993 JLINK_Step() -- Read from C cache (2 bytes @ 0x0800CCF4) -- Read from C cache (2 bytes @ 0x0800CCF6) -- Not simulated -- CPU_WriteMem(4 bytes @ 0xE0002008) -- CPU_WriteMem(4 bytes @ 0xE0001004)  returns 0x00 (0009ms, 0848ms total)
T14FC 053:002 JLINK_ReadReg(R15 (PC))  returns 0x0800CCF8 (0000ms, 0848ms total)
T14FC 053:002 JLINK_ReadReg(XPSR)  returns 0x41000000 (0000ms, 0848ms total)
T14FC 053:002 JLINK_Step() -- CPU_ReadMem(64 bytes @ 0x0800CCC0) -- Updating C cache (64 bytes @ 0x0800CCC0) -- Read from C cache (2 bytes @ 0x0800CCF8) -- CPU_ReadMem(4 bytes @ 0xE0001004) -- Read from C cache (2 bytes @ 0x0800CCFA) -- Not simulated  returns 0x00 (0010ms, 0858ms total)
T14FC 053:012 JLINK_ReadReg(R15 (PC))  returns 0x0800CCFC (0000ms, 0858ms total)
T14FC 053:012 JLINK_ReadReg(XPSR)  returns 0x41000000 (0000ms, 0858ms total)
T14FC 053:012 JLINK_Step() -- CPU_ReadMem(64 bytes @ 0x0800CCC0) -- Updating C cache (64 bytes @ 0x0800CCC0) -- Read from C cache (2 bytes @ 0x0800CCFC) -- CPU_ReadMem(4 bytes @ 0xE0001004) -- Simulated  returns 0x00 (0003ms, 0861ms total)
T14FC 053:015 JLINK_ReadReg(R15 (PC))  returns 0x0800CCFE (0000ms, 0861ms total)
T14FC 053:015 JLINK_ReadReg(XPSR)  returns 0x21000000 (0000ms, 0861ms total)
T14FC 053:015 JLINK_Step() -- Read from C cache (2 bytes @ 0x0800CCFE) -- Simulated  returns 0x00 (0000ms, 0861ms total)
T14FC 053:015 JLINK_ReadReg(R15 (PC))  returns 0x0800CD5E (0000ms, 0861ms total)
T14FC 053:015 JLINK_ReadReg(XPSR)  returns 0x21000000 (0000ms, 0861ms total)
T14FC 053:016 JLINK_ReadReg(R0)  returns 0x2008CC95 (0000ms, 0861ms total)
T14FC 053:016 JLINK_ReadReg(R1)  returns 0x00000384 (0000ms, 0861ms total)
T14FC 053:016 JLINK_ReadReg(R2)  returns 0x00000001 (0000ms, 0861ms total)
T14FC 053:016 JLINK_ReadReg(R3)  returns 0x40002860 (0000ms, 0861ms total)
T14FC 053:016 JLINK_ReadReg(R4)  returns 0x2008BE85 (0000ms, 0861ms total)
T14FC 053:016 JLINK_ReadReg(R5)  returns 0xA5A5A5A5 (0000ms, 0861ms total)
T14FC 053:016 JLINK_ReadReg(R6)  returns 0xA5A5A5A5 (0000ms, 0861ms total)
T14FC 053:016 JLINK_ReadReg(R7)  returns 0x2008C591 (0000ms, 0861ms total)
T14FC 053:016 JLINK_ReadReg(R8)  returns 0xA5A5A5A5 (0000ms, 0861ms total)
T14FC 053:016 JLINK_ReadReg(R9)  returns 0xA5A5A5A5 (0000ms, 0861ms total)
T14FC 053:016 JLINK_ReadReg(R10)  returns 0xA5A5A5A5 (0000ms, 0861ms total)
T14FC 053:016 JLINK_ReadReg(R11)  returns 0xA5A5A5A5 (0000ms, 0861ms total)
T14FC 053:016 JLINK_ReadReg(R12)  returns 0x00000000 (0000ms, 0861ms total)
T14FC 053:016 JLINK_ReadReg(R13 (SP))  returns 0x2000B360 (0000ms, 0861ms total)
T14FC 053:016 JLINK_ReadReg(R14)  returns 0x0800CCEF (0000ms, 0861ms total)
T14FC 053:016 JLINK_ReadReg(R15 (PC))  returns 0x0800CD5E (0000ms, 0861ms total)
T14FC 053:016 JLINK_ReadReg(XPSR)  returns 0x21000000 (0000ms, 0861ms total)
T14FC 053:016 JLINK_ReadReg(MSP)  returns 0x20019CB8 (0000ms, 0861ms total)
T14FC 053:016 JLINK_ReadReg(PSP)  returns 0x2000B360 (0000ms, 0861ms total)
T14FC 053:016 JLINK_ReadReg(CFBP)  returns 0x02000000 (0000ms, 0861ms total)
T14FC 053:016 JLINK_ReadReg(FPSCR)  returns 0x03000000 (0006ms, 0867ms total)
T14FC 053:022 JLINK_ReadReg(FPS0)  returns 0x148D0128 (0000ms, 0867ms total)
T14FC 053:022 JLINK_ReadReg(FPS1)  returns 0x4098FCC5 (0000ms, 0867ms total)
T14FC 053:022 JLINK_ReadReg(FPS2)  returns 0xC4F3A22C (0000ms, 0867ms total)
T14FC 053:022 JLINK_ReadReg(FPS3)  returns 0x4061B539 (0000ms, 0867ms total)
T14FC 053:022 JLINK_ReadReg(FPS4)  returns 0x7DF5CF25 (0000ms, 0867ms total)
T14FC 053:022 JLINK_ReadReg(FPS5)  returns 0x405D4A38 (0000ms, 0867ms total)
T14FC 053:022 JLINK_ReadReg(FPS6)  returns 0x19008206 (0000ms, 0867ms total)
T14FC 053:022 JLINK_ReadReg(FPS7)  returns 0x403FE23A (0000ms, 0867ms total)
T14FC 053:022 JLINK_ReadReg(FPS8)  returns 0x00000000 (0000ms, 0867ms total)
T14FC 053:022 JLINK_ReadReg(FPS9)  returns 0x00000000 (0000ms, 0867ms total)
T14FC 053:023 JLINK_ReadReg(FPS10)  returns 0x00000000 (0000ms, 0868ms total)
T14FC 053:023 JLINK_ReadReg(FPS11)  returns 0x00000000 (0000ms, 0868ms total)
T14FC 053:023 JLINK_ReadReg(FPS12)  returns 0x00000000 (0000ms, 0868ms total)
T14FC 053:023 JLINK_ReadReg(FPS13)  returns 0x00000000 (0000ms, 0868ms total)
T14FC 053:023 JLINK_ReadReg(FPS14)  returns 0x00000000 (0000ms, 0868ms total)
T14FC 053:023 JLINK_ReadReg(FPS15)  returns 0x00000000 (0000ms, 0868ms total)
T14FC 053:023 JLINK_ReadReg(FPS16)  returns 0x00000000 (0000ms, 0868ms total)
T14FC 053:023 JLINK_ReadReg(FPS17)  returns 0x00000000 (0000ms, 0868ms total)
T14FC 053:023 JLINK_ReadReg(FPS18)  returns 0x00000000 (0000ms, 0868ms total)
T14FC 053:023 JLINK_ReadReg(FPS19)  returns 0x00000000 (0000ms, 0868ms total)
T14FC 053:023 JLINK_ReadReg(FPS20)  returns 0x00000000 (0000ms, 0868ms total)
T14FC 053:023 JLINK_ReadReg(FPS21)  returns 0x00000000 (0000ms, 0868ms total)
T14FC 053:023 JLINK_ReadReg(FPS22)  returns 0x00000000 (0000ms, 0868ms total)
T14FC 053:023 JLINK_ReadReg(FPS23)  returns 0x00000000 (0000ms, 0868ms total)
T14FC 053:023 JLINK_ReadReg(FPS24)  returns 0x00000000 (0000ms, 0868ms total)
T14FC 053:023 JLINK_ReadReg(FPS25)  returns 0x00000000 (0000ms, 0868ms total)
T14FC 053:023 JLINK_ReadReg(FPS26)  returns 0x00000000 (0000ms, 0868ms total)
T14FC 053:023 JLINK_ReadReg(FPS27)  returns 0x00000000 (0000ms, 0868ms total)
T14FC 053:023 JLINK_ReadReg(FPS28)  returns 0x00000000 (0000ms, 0868ms total)
T14FC 053:023 JLINK_ReadReg(FPS29)  returns 0x00000000 (0000ms, 0868ms total)
T14FC 053:023 JLINK_ReadReg(FPS30)  returns 0x00000000 (0000ms, 0868ms total)
T14FC 053:023 JLINK_ReadReg(FPS31)  returns 0x00000000 (0000ms, 0868ms total)
T0428 053:025 JLINK_ReadMem (0x200004CC, 0x0020 Bytes, ...) -- CPU_ReadMem(64 bytes @ 0x200004C0) -- Updating C cache (64 bytes @ 0x200004C0) -- Read from C cache (32 bytes @ 0x200004CC) - Data: 00 00 00 00 00 00 00 00 00 00 00 00 00 00 00 00 ...  returns 0x00 (0002ms, 0870ms total)
T0428 053:030 JLINK_ReadMem (0x20000596, 0x0020 Bytes, ...) -- CPU_ReadMem(64 bytes @ 0x20000580) -- Updating C cache (64 bytes @ 0x20000580) -- Read from C cache (32 bytes @ 0x20000596) - Data: 00 00 00 00 00 00 00 00 00 00 00 00 00 00 00 00 ...  returns 0x00 (0002ms, 0872ms total)
T0428 053:033 JLINK_ReadMem (0x2000006C, 0x0002 Bytes, ...) -- CPU_ReadMem(64 bytes @ 0x20000040) -- Updating C cache (64 bytes @ 0x20000040) -- Read from C cache (2 bytes @ 0x2000006C) - Data: 00 00  returns 0x00 (0003ms, 0875ms total)
T0428 053:037 JLINK_ReadMem (0x080060C6, 0x025D Bytes, ...) -- CPU_ReadMem(640 bytes @ 0x080060C0) -- Updating C cache (640 bytes @ 0x080060C0) -- Read from C cache (605 bytes @ 0x080060C6) - Data: 0F 22 C4 78 1C B3 17 4C 24 68 04 F4 E0 64 C4 F5 ...  returns 0x00 (0006ms, 0881ms total)
T0428 053:048 JLINK_ReadMem (0x0800CD38, 0x003C Bytes, ...) -- CPU_ReadMem(128 bytes @ 0x0800CD00) -- Updating C cache (128 bytes @ 0x0800CD00) -- Read from C cache (60 bytes @ 0x0800CD38) - Data: 06 EB 46 00 1E 4A 02 EB 40 00 01 1D 00 23 40 F2 ...  returns 0x00 (0002ms, 0883ms total)
T14FC 055:457 JLINK_SetBPEx(Addr = 0x0800CCF0, Type = 0xFFFFFFF2)  returns 0x00000004 (0002ms, 0885ms total)
T14FC 055:459 JLINK_Go() -- CPU_WriteMem(4 bytes @ 0xE0002000) -- CPU_WriteMem(4 bytes @ 0xE0002008) -- CPU_WriteMem(4 bytes @ 0xE0001004) (0006ms, 0891ms total)
T14FC 055:565 JLINK_IsHalted()  returns FALSE (0001ms, 0892ms total)
T14FC 055:667 JLINK_IsHalted()  returns FALSE (0001ms, 0892ms total)
T14FC 055:769 JLINK_IsHalted()  returns FALSE (0001ms, 0892ms total)
T14FC 055:870 JLINK_IsHalted()  returns FALSE (0000ms, 0891ms total)
T14FC 055:971 JLINK_IsHalted()  returns FALSE (0001ms, 0892ms total)
T14FC 056:072 JLINK_ReadMemU32(0xE0001004, 0x0001 Items, ...) -- CPU is running -- CPU_ReadMem(4 bytes @ 0xE0001004) - Data: 18 78 27 06  returns 0x01 (0000ms, 0891ms total)
T0428 056:073 JLINK_ReadMem (0x080060C6, 0x025D Bytes, ...) -- CPU is running -- CPU_ReadMem(605 bytes @ 0x080060C6) - Data: 0F 22 C4 78 1C B3 17 4C 24 68 04 F4 E0 64 C4 F5 ...  returns 0x00 (0004ms, 0895ms total)
T0428 056:084 JLINK_ReadMem (0x200004CC, 0x0020 Bytes, ...) -- CPU is running -- CPU_ReadMem(32 bytes @ 0x200004CC) - Data: 00 00 00 00 00 00 00 00 00 00 00 00 00 00 00 00 ...  returns 0x00 (0002ms, 0897ms total)
T0428 056:089 JLINK_ReadMem (0x20000596, 0x0020 Bytes, ...) -- CPU is running -- CPU_ReadMem(32 bytes @ 0x20000596) - Data: 00 00 00 00 00 00 00 00 00 00 00 00 00 00 00 00 ...  returns 0x00 (0002ms, 0899ms total)
T0428 056:092 JLINK_ReadMem (0x2000006C, 0x0002 Bytes, ...) -- CPU is running -- CPU_ReadMem(2 bytes @ 0x2000006C) - Data: 00 00  returns 0x00 (0001ms, 0900ms total)
T14FC 056:094 JLINK_IsHalted()  returns FALSE (0002ms, 0902ms total)
T14FC 056:196 JLINK_IsHalted()  returns FALSE (0001ms, 0901ms total)
T14FC 056:298 JLINK_IsHalted()  returns FALSE (0001ms, 0901ms total)
T14FC 056:399 JLINK_IsHalted()  returns FALSE (0001ms, 0901ms total)
T14FC 056:501 JLINK_IsHalted()  returns TRUE (0006ms, 0906ms total)
T14FC 056:507 JLINK_Halt()  returns 0x00 (0000ms, 0900ms total)
T14FC 056:507 JLINK_IsHalted()  returns TRUE (0000ms, 0900ms total)
T14FC 056:507 JLINK_IsHalted()  returns TRUE (0001ms, 0901ms total)
T14FC 056:508 JLINK_IsHalted()  returns TRUE (0000ms, 0900ms total)
T14FC 056:508 JLINK_ReadReg(R15 (PC))  returns 0x0800CCF0 (0000ms, 0900ms total)
T14FC 056:508 JLINK_ReadReg(XPSR)  returns 0x41000000 (0000ms, 0900ms total)
T14FC 056:508 JLINK_ClrBPEx(BPHandle = 0x00000004)  returns 0x00 (0000ms, 0900ms total)
T14FC 056:508 JLINK_ReadMemU32(0xE000ED30, 0x0001 Items, ...) -- CPU_ReadMem(4 bytes @ 0xE000ED30) - Data: 03 00 00 00  returns 0x01 (0002ms, 0902ms total)
T14FC 056:510 JLINK_ReadMemU32(0xE0001028, 0x0001 Items, ...) -- CPU_ReadMem(4 bytes @ 0xE0001028) - Data: 00 00 00 00  returns 0x01 (0001ms, 0903ms total)
T14FC 056:511 JLINK_ReadMemU32(0xE0001038, 0x0001 Items, ...) -- CPU_ReadMem(4 bytes @ 0xE0001038) - Data: 00 02 00 00  returns 0x01 (0001ms, 0904ms total)
T14FC 056:512 JLINK_ReadMemU32(0xE0001048, 0x0001 Items, ...) -- CPU_ReadMem(4 bytes @ 0xE0001048) - Data: 00 00 00 00  returns 0x01 (0002ms, 0906ms total)
T14FC 056:514 JLINK_ReadMemU32(0xE0001058, 0x0001 Items, ...) -- CPU_ReadMem(4 bytes @ 0xE0001058) - Data: 00 00 00 00  returns 0x01 (0001ms, 0907ms total)
T14FC 056:515 JLINK_ReadReg(R0)  returns 0x2008BE85 (0000ms, 0907ms total)
T14FC 056:515 JLINK_ReadReg(R1)  returns 0x00000004 (0000ms, 0907ms total)
T14FC 056:515 JLINK_ReadReg(R2)  returns 0x00000001 (0000ms, 0907ms total)
T14FC 056:515 JLINK_ReadReg(R3)  returns 0x40002860 (0000ms, 0907ms total)
T14FC 056:515 JLINK_ReadReg(R4)  returns 0x2008BE85 (0000ms, 0907ms total)
T14FC 056:515 JLINK_ReadReg(R5)  returns 0x00000001 (0000ms, 0907ms total)
T14FC 056:515 JLINK_ReadReg(R6)  returns 0xA5A5A5A5 (0000ms, 0907ms total)
T14FC 056:515 JLINK_ReadReg(R7)  returns 0x2008C5A0 (0001ms, 0908ms total)
T14FC 056:516 JLINK_ReadReg(R8)  returns 0xA5A5A5A5 (0000ms, 0908ms total)
T14FC 056:516 JLINK_ReadReg(R9)  returns 0xA5A5A5A5 (0000ms, 0908ms total)
T14FC 056:516 JLINK_ReadReg(R10)  returns 0xA5A5A5A5 (0000ms, 0908ms total)
T14FC 056:516 JLINK_ReadReg(R11)  returns 0xA5A5A5A5 (0000ms, 0908ms total)
T14FC 056:516 JLINK_ReadReg(R12)  returns 0x00000000 (0000ms, 0908ms total)
T14FC 056:516 JLINK_ReadReg(R13 (SP))  returns 0x2000B360 (0000ms, 0908ms total)
T14FC 056:516 JLINK_ReadReg(R14)  returns 0x0800CCEF (0000ms, 0908ms total)
T14FC 056:516 JLINK_ReadReg(R15 (PC))  returns 0x0800CCF0 (0000ms, 0908ms total)
T14FC 056:516 JLINK_ReadReg(XPSR)  returns 0x41000000 (0000ms, 0908ms total)
T14FC 056:516 JLINK_ReadReg(MSP)  returns 0x20019CB8 (0000ms, 0908ms total)
T14FC 056:516 JLINK_ReadReg(PSP)  returns 0x2000B360 (0000ms, 0908ms total)
T14FC 056:516 JLINK_ReadReg(CFBP)  returns 0x02000000 (0000ms, 0908ms total)
T14FC 056:516 JLINK_ReadReg(FPSCR)  returns 0x03000000 (0006ms, 0914ms total)
T14FC 056:522 JLINK_ReadReg(FPS0)  returns 0x148D0128 (0000ms, 0914ms total)
T14FC 056:522 JLINK_ReadReg(FPS1)  returns 0x4098FCC5 (0000ms, 0914ms total)
T14FC 056:522 JLINK_ReadReg(FPS2)  returns 0xC4F3A22C (0000ms, 0914ms total)
T14FC 056:522 JLINK_ReadReg(FPS3)  returns 0x4061B539 (0000ms, 0914ms total)
T14FC 056:522 JLINK_ReadReg(FPS4)  returns 0x7DF5CF25 (0000ms, 0914ms total)
T14FC 056:522 JLINK_ReadReg(FPS5)  returns 0x405D4A38 (0000ms, 0914ms total)
T14FC 056:522 JLINK_ReadReg(FPS6)  returns 0x19008206 (0000ms, 0914ms total)
T14FC 056:522 JLINK_ReadReg(FPS7)  returns 0x403FE23A (0000ms, 0914ms total)
T14FC 056:522 JLINK_ReadReg(FPS8)  returns 0x00000000 (0000ms, 0914ms total)
T14FC 056:522 JLINK_ReadReg(FPS9)  returns 0x00000000 (0000ms, 0914ms total)
T14FC 056:522 JLINK_ReadReg(FPS10)  returns 0x00000000 (0000ms, 0914ms total)
T14FC 056:523 JLINK_ReadReg(FPS11)  returns 0x00000000 (0000ms, 0915ms total)
T14FC 056:523 JLINK_ReadReg(FPS12)  returns 0x00000000 (0000ms, 0915ms total)
T14FC 056:523 JLINK_ReadReg(FPS13)  returns 0x00000000 (0000ms, 0915ms total)
T14FC 056:523 JLINK_ReadReg(FPS14)  returns 0x00000000 (0000ms, 0915ms total)
T14FC 056:523 JLINK_ReadReg(FPS15)  returns 0x00000000 (0000ms, 0915ms total)
T14FC 056:523 JLINK_ReadReg(FPS16)  returns 0x00000000 (0000ms, 0915ms total)
T14FC 056:523 JLINK_ReadReg(FPS17)  returns 0x00000000 (0000ms, 0915ms total)
T14FC 056:523 JLINK_ReadReg(FPS18)  returns 0x00000000 (0000ms, 0915ms total)
T14FC 056:523 JLINK_ReadReg(FPS19)  returns 0x00000000 (0000ms, 0915ms total)
T14FC 056:523 JLINK_ReadReg(FPS20)  returns 0x00000000 (0000ms, 0915ms total)
T14FC 056:523 JLINK_ReadReg(FPS21)  returns 0x00000000 (0000ms, 0915ms total)
T14FC 056:523 JLINK_ReadReg(FPS22)  returns 0x00000000 (0000ms, 0915ms total)
T14FC 056:523 JLINK_ReadReg(FPS23)  returns 0x00000000 (0000ms, 0915ms total)
T14FC 056:523 JLINK_ReadReg(FPS24)  returns 0x00000000 (0000ms, 0915ms total)
T14FC 056:523 JLINK_ReadReg(FPS25)  returns 0x00000000 (0000ms, 0915ms total)
T14FC 056:523 JLINK_ReadReg(FPS26)  returns 0x00000000 (0000ms, 0915ms total)
T14FC 056:523 JLINK_ReadReg(FPS27)  returns 0x00000000 (0000ms, 0915ms total)
T14FC 056:523 JLINK_ReadReg(FPS28)  returns 0x00000000 (0000ms, 0915ms total)
T14FC 056:523 JLINK_ReadReg(FPS29)  returns 0x00000000 (0000ms, 0915ms total)
T14FC 056:523 JLINK_ReadReg(FPS30)  returns 0x00000000 (0000ms, 0915ms total)
T14FC 056:523 JLINK_ReadReg(FPS31)  returns 0x00000000 (0000ms, 0915ms total)
T0428 056:534 JLINK_ReadMem (0x200004CC, 0x0020 Bytes, ...) -- CPU_ReadMem(64 bytes @ 0x200004C0) -- Updating C cache (64 bytes @ 0x200004C0) -- Read from C cache (32 bytes @ 0x200004CC) - Data: 00 00 00 00 00 00 00 00 00 00 00 00 00 00 00 00 ...  returns 0x00 (0002ms, 0917ms total)
T0428 056:539 JLINK_ReadMem (0x20000596, 0x0020 Bytes, ...) -- CPU_ReadMem(64 bytes @ 0x20000580) -- Updating C cache (64 bytes @ 0x20000580) -- Read from C cache (32 bytes @ 0x20000596) - Data: 00 00 00 00 00 00 00 00 00 00 00 00 00 00 00 00 ...  returns 0x00 (0002ms, 0919ms total)
T0428 056:542 JLINK_ReadMem (0x2000006C, 0x0002 Bytes, ...) -- CPU_ReadMem(64 bytes @ 0x20000040) -- Updating C cache (64 bytes @ 0x20000040) -- Read from C cache (2 bytes @ 0x2000006C) - Data: 00 00  returns 0x00 (0002ms, 0921ms total)
T0428 056:545 JLINK_ReadMem (0x080060C6, 0x025D Bytes, ...) -- CPU_ReadMem(640 bytes @ 0x080060C0) -- Updating C cache (640 bytes @ 0x080060C0) -- Read from C cache (605 bytes @ 0x080060C6) - Data: 0F 22 C4 78 1C B3 17 4C 24 68 04 F4 E0 64 C4 F5 ...  returns 0x00 (0006ms, 0927ms total)
T0428 056:556 JLINK_ReadMem (0x0800CCE8, 0x003C Bytes, ...) -- CPU_ReadMem(128 bytes @ 0x0800CCC0) -- Updating C cache (128 bytes @ 0x0800CCC0) -- Read from C cache (60 bytes @ 0x0800CCE8) - Data: 04 20 F9 F7 AB FF 04 46 2E 48 00 68 C0 EB 00 11 ...  returns 0x00 (0002ms, 0929ms total)
T14FC 149:047 JLINK_Go() -- CPU_WriteMem(4 bytes @ 0xE0002008) (0004ms, 0933ms total)
T14FC 149:151 JLINK_IsHalted()  returns FALSE (0001ms, 0934ms total)
